T1614 000:116.786   SEGGER J-Link V7.80b Log File
T1614 000:117.745   DLL Compiled: Sep 20 2022 17:05:22
T1614 000:117.754   Logging started @ 2022-10-02 05:17
T1614 000:117.761 - 117.765ms
T1614 000:118.029 JLINK_SetWarnOutHandler(...)
T1614 000:118.265 - 0.239ms
T1614 000:118.276 JLINK_OpenEx(...)
T1614 000:119.573   Firmware: J-Link ARM-OB STM32 compiled Aug 22 2012 19:52:04
T1614 000:119.983   Firmware: J-Link ARM-OB STM32 compiled Aug 22 2012 19:52:04
T1614 000:121.833   Hardware: V7.00
T1614 000:121.878   S/N: 20090928
T1614 000:121.892   OEM: SEGGER
T1614 000:121.906   Feature(s): RDI,FlashDL,FlashBP,JFlash,GDBFull
T1614 000:122.970   TELNET listener socket opened on port 19021
T1614 000:123.246   WEBSRV WEBSRV_Init(): Starting webserver thread(s)
T1614 000:123.488   WEBSRV Webserver running on local port 19080
T1614 000:132.584 - 14.333ms returns "O.K."
T1614 000:133.173 JLINK_SetErrorOutHandler(...)
T1614 000:133.188 - 0.019ms
T1614 000:133.733 JLINK_ExecCommand("ProjectFile = "C:\Users\vince\Desktop\sideProject\JLinkSettings.ini"", ...). 
T1614 000:174.810   Ref file found at: C:\Keil_v5\ARM\Segger\JLinkDevices.ref
T1614 000:175.209   REF file references invalid XML file: C:\Program Files\SEGGER\JLink\JLinkDevices.xml
T1614 000:175.889 - 42.177ms returns 0x00
T1614 000:180.502 JLINK_ExecCommand("Device = NANO100KE3BN", ...). 
T1614 000:188.130   Device "NANO100KE3BN" selected.
T1614 000:188.662 - 8.145ms returns 0x00
T1614 000:188.691 JLINK_ExecCommand("DisableConnectionTimeout", ...). 
T1614 000:188.708 - 0.008ms returns 0x01
T1614 000:188.723 JLINK_GetHardwareVersion()
T1614 000:188.733 - 0.014ms returns 70000
T1614 000:188.746 JLINK_GetDLLVersion()
T1614 000:188.755 - 0.016ms returns 78002
T1614 000:188.773 JLINK_GetOEMString(...)
T1614 000:188.800 JLINK_GetFirmwareString(...)
T1614 000:188.809 - 0.013ms
T1614 000:199.023 JLINK_GetDLLVersion()
T1614 000:199.047 - 0.027ms returns 78002
T1614 000:199.057 JLINK_GetCompileDateTime()
T1614 000:199.066 - 0.012ms
T1614 000:202.155 JLINK_GetFirmwareString(...)
T1614 000:202.183 - 0.032ms
T1614 000:208.928 JLINK_GetHardwareVersion()
T1614 000:208.957 - 0.033ms returns 70000
T1614 000:212.082 JLINK_GetSN()
T1614 000:212.111 - 0.032ms returns 20090928
T1614 000:215.432 JLINK_GetOEMString(...)
T1614 000:224.892 JLINK_TIF_Select(JLINKARM_TIF_SWD)
T1614 000:225.262 - 0.385ms returns 0x00
T1614 000:225.288 JLINK_HasError()
T1614 000:226.236 JLINK_SetSpeed(5000)
T1614 000:226.550 - 0.335ms
T1614 000:226.584 JLINK_GetId()
T1614 000:230.819   InitTarget() start
T1614 000:230.855    J-Link Script File: Executing InitTarget()
T1614 000:235.015   InitTarget()
T1614 000:246.628   InitTarget() end
T1614 000:250.602   Found SW-DP with ID 0x0BB11477
T1614 000:254.981   Old FW that does not support reading DPIDR via DAP jobs
T1614 000:262.834   DPv0 detected
T1614 000:266.183   CoreSight SoC-400 or earlier
T1614 000:270.418   Scanning AP map to find all available APs
T1614 000:278.574   AP[1]: Stopped AP scan as end of AP map has been reached
T1614 000:282.577   AP[0]: AHB-AP (IDR: 0x04770021)
T1614 000:286.989   Iterating through AP map to find AHB-AP to use
T1614 000:296.542   AP[0]: Core found
T1614 000:300.361   AP[0]: AHB-AP ROM base: 0xE00FF000
T1614 000:307.523   CPUID register: 0x410CC200. Implementer code: 0x41 (ARM)
T1614 000:311.534   Found Cortex-M0 r0p0, Little endian.
T1614 000:412.501   -- Max. mem block: 0x00002C18
T1614 000:412.987   CPU_ReadMem(4 bytes @ 0xE000EDF0)
T1614 000:413.441   CPU_WriteMem(4 bytes @ 0xE000EDF0)
T1614 000:413.997   CPU_ReadMem(4 bytes @ 0xE0002000)
T1614 000:417.754   FPUnit: 4 code (BP) slots and 0 literal slots
T1614 000:417.835   CPU_ReadMem(4 bytes @ 0xE000EDFC)
T1614 000:418.320   CPU_WriteMem(4 bytes @ 0xE000EDFC)
T1614 000:418.797   CPU_ReadMem(4 bytes @ 0xE0001000)
T1614 000:419.311   CPU_WriteMem(4 bytes @ 0xE0001000)
T1614 000:425.556   CoreSight components:
T1614 000:429.544   ROMTbl[0] @ E00FF000
T1614 000:429.585   CPU_ReadMem(64 bytes @ 0xE00FF000)
T1614 000:430.668   CPU_ReadMem(32 bytes @ 0xE000EFE0)
T1614 000:435.073   [0][0]: E000E000 CID B105E00D PID 000BB008 SCS
T1614 000:435.117   CPU_ReadMem(32 bytes @ 0xE0001FE0)
T1614 000:441.367   [0][1]: E0001000 CID B105E00D PID 000BB00A DWT
T1614 000:441.455   CPU_ReadMem(32 bytes @ 0xE0002FE0)
T1614 000:446.022   [0][2]: E0002000 CID B105E00D PID 000BB00B FPB
T1614 000:446.608 - 220.039ms returns 0x0BB11477
T1614 000:446.646 JLINK_GetDLLVersion()
T1614 000:446.654 - 0.010ms returns 78002
T1614 000:446.665 JLINK_CORE_GetFound()
T1614 000:446.672 - 0.010ms returns 0x60000FF
T1614 000:446.683 JLINK_GetDebugInfo(0x100 = JLINKARM_ROM_TABLE_ADDR_INDEX)
T1614 000:446.692   Value=0xE00FF000
T1614 000:446.702 - 0.022ms returns 0
T1614 000:450.360 JLINK_ReadMem(0xE00FF000, 0x20 Bytes, ...)
T1614 000:450.421   CPU_ReadMem(32 bytes @ 0xE00FF000)
T1614 000:451.212   Data:  03 F0 F0 FF 03 20 F0 FF 03 30 F0 FF 00 00 00 00 ...
T1614 000:451.237 - 0.881ms returns 0
T1614 000:451.252 JLINK_ReadMem(0xE000EFF0, 0x10 Bytes, ...)
T1614 000:451.268   CPU_ReadMem(16 bytes @ 0xE000EFF0)
T1614 000:451.802   Data:  0D 00 00 00 E0 00 00 00 05 00 00 00 B1 00 00 00
T1614 000:451.831 - 0.584ms returns 0
T1614 000:451.849 JLINK_ReadMem(0xE000EFD0, 0x20 Bytes, ...)
T1614 000:451.869   CPU_ReadMem(32 bytes @ 0xE000EFD0)
T1614 000:452.575   Data:  04 00 00 00 00 00 00 00 00 00 00 00 00 00 00 00 ...
T1614 000:452.605 - 0.761ms returns 0
T1614 000:452.623 JLINK_ReadMem(0xE0001FF0, 0x10 Bytes, ...)
T1614 000:452.654   CPU_ReadMem(16 bytes @ 0xE0001FF0)
T1614 000:453.308   Data:  0D 00 00 00 E0 00 00 00 05 00 00 00 B1 00 00 00
T1614 000:453.342 - 0.758ms returns 0
T1614 000:453.397 JLINK_ReadMem(0xE0001FD0, 0x20 Bytes, ...)
T1614 000:453.426   CPU_ReadMem(32 bytes @ 0xE0001FD0)
T1614 000:454.207   Data:  04 00 00 00 00 00 00 00 00 00 00 00 00 00 00 00 ...
T1614 000:454.260 - 0.867ms returns 0
T1614 000:454.283 JLINK_ReadMem(0xE0002FF0, 0x10 Bytes, ...)
T1614 000:454.319   CPU_ReadMem(16 bytes @ 0xE0002FF0)
T1614 000:454.939   Data:  0D 00 00 00 E0 00 00 00 05 00 00 00 B1 00 00 00
T1614 000:454.992 - 0.715ms returns 0
T1614 000:455.019 JLINK_ReadMem(0xE0002FD0, 0x20 Bytes, ...)
T1614 000:455.054   CPU_ReadMem(32 bytes @ 0xE0002FD0)
T1614 000:455.917   Data:  04 00 00 00 00 00 00 00 00 00 00 00 00 00 00 00 ...
T1614 000:456.046 - 1.036ms returns 0
T1614 000:456.099 JLINK_ReadMemU32(0xE000ED00, 0x1 Items)
T1614 000:456.210   CPU_ReadMem(4 bytes @ 0xE000ED00)
T1614 000:456.677   Data:  00 C2 0C 41
T1614 000:456.751   Debug reg: CPUID
T1614 000:456.774 - 0.681ms returns 1 (0x1)
T1614 000:456.805 JLINK_HasError()
T1614 000:456.831 JLINK_SetResetType(JLINKARM_CM3_RESET_TYPE_NORMAL)
T1614 000:456.852 - 0.029ms returns JLINKARM_CM3_RESET_TYPE_NORMAL
T1614 000:456.871 JLINK_Reset()
T1614 000:456.945   CPU is running
T1614 000:456.968   CPU_WriteMem(4 bytes @ 0xE000EDF0)
T1614 000:457.645   CPU is running
T1614 000:457.694   CPU_WriteMem(4 bytes @ 0xE000EDFC)
T1614 000:461.655   Reset: Halt core after reset via DEMCR.VC_CORERESET.
T1614 000:466.690   Reset: Reset device via AIRCR.SYSRESETREQ.
T1614 000:466.733   CPU is running
T1614 000:466.753   CPU_WriteMem(4 bytes @ 0xE000ED0C)
T1614 000:519.580   CPU_ReadMem(4 bytes @ 0xE000EDF0)
T1614 000:520.027   CPU_ReadMem(4 bytes @ 0xE000EDF0)
T1614 000:520.517   CPU is running
T1614 000:520.547   CPU_WriteMem(4 bytes @ 0xE000EDF0)
T1614 000:521.097   CPU is running
T1614 000:521.278   CPU_WriteMem(4 bytes @ 0xE000EDFC)
T1614 000:527.166   CPU_ReadMem(4 bytes @ 0xE000EDF0)
T1614 000:551.832   CPU_WriteMem(4 bytes @ 0xE0002000)
T1614 000:552.358   CPU_ReadMem(4 bytes @ 0xE000EDFC)
T1614 000:552.813   CPU_ReadMem(4 bytes @ 0xE0001000)
T1614 000:553.291   CPU_WriteMem(4 bytes @ 0xE0001000)
T1614 000:553.808 - 96.975ms
T1614 000:553.888 JLINK_Halt()
T1614 000:553.900 - 0.017ms returns 0x00
T1614 000:553.920 JLINK_IsHalted()
T1614 000:553.933 - 0.017ms returns TRUE
T1614 000:553.948 JLINK_ReadMemU32(0xE000EDF0, 0x1 Items)
T1614 000:553.978   CPU_ReadMem(4 bytes @ 0xE000EDF0)
T1614 000:554.576   Data:  03 00 03 00
T1614 000:554.620   Debug reg: DHCSR
T1614 000:554.636 - 0.692ms returns 1 (0x1)
T1614 000:554.728 JLINK_WriteU32_64(0xE000EDF0, 0xA05F0003)
T1614 000:554.746   Debug reg: DHCSR
T1614 000:555.202   CPU_WriteMem(4 bytes @ 0xE000EDF0)
T1614 000:555.778 - 1.079ms returns 0 (0x00000000)
T1614 000:555.825 JLINK_WriteU32_64(0xE000EDFC, 0x01000000)
T1614 000:555.837   Debug reg: DEMCR
T1614 000:555.890   CPU_WriteMem(4 bytes @ 0xE000EDFC)
T1614 000:556.458 - 0.659ms returns 0 (0x00000000)
T1614 000:570.015 JLINK_GetHWStatus(...)
T1614 000:570.280 - 0.283ms returns 0
T1614 000:585.886 JLINK_GetNumBPUnits(Type = 0xFFFFFF00)
T1614 000:585.916 - 0.033ms returns 0x04
T1614 000:585.926 JLINK_GetNumBPUnits(Type = 0xF0)
T1614 000:585.933 - 0.010ms returns 0x2000
T1614 000:585.942 JLINK_GetNumWPUnits()
T1614 000:585.949 - 0.010ms returns 2
T1614 000:599.330 JLINK_GetSpeed()
T1614 000:599.362 - 0.036ms returns 4000
T1614 000:609.588 JLINK_ReadMemU32(0xE000E004, 0x1 Items)
T1614 000:609.640   CPU_ReadMem(4 bytes @ 0xE000E004)
T1614 000:610.098   Data:  00 00 00 00
T1614 000:610.119 - 0.536ms returns 1 (0x1)
T1614 000:610.150 JLINK_Halt()
T1614 000:610.160 - 0.015ms returns 0x00
T1614 000:610.173 JLINK_IsHalted()
T1614 000:610.183 - 0.015ms returns TRUE
T1614 000:624.707 JLINK_WriteMem(0x20000000, 0x224 Bytes, ...)
T1614 000:624.729   Data:  00 BE 0A E0 0D 78 2D 06 68 40 08 24 40 00 00 D3 ...
T1614 000:625.085   CPU_WriteMem(548 bytes @ 0x20000000)
T1614 000:632.045 - 7.361ms returns 0x224
T1614 000:632.143 JLINK_HasError()
T1614 000:632.158 JLINK_WriteReg(R0, 0x00000000)
T1614 000:632.171 - 0.017ms returns 0
T1614 000:632.181 JLINK_WriteReg(R1, 0x00B71B00)
T1614 000:632.189 - 0.011ms returns 0
T1614 000:632.198 JLINK_WriteReg(R2, 0x00000001)
T1614 000:632.205 - 0.011ms returns 0
T1614 000:632.215 JLINK_WriteReg(R3, 0x00000000)
T1614 000:632.222 - 0.010ms returns 0
T1614 000:632.231 JLINK_WriteReg(R4, 0x00000000)
T1614 000:632.239 - 0.011ms returns 0
T1614 000:632.248 JLINK_WriteReg(R5, 0x00000000)
T1614 000:632.255 - 0.010ms returns 0
T1614 000:632.265 JLINK_WriteReg(R6, 0x00000000)
T1614 000:632.272 - 0.010ms returns 0
T1614 000:632.281 JLINK_WriteReg(R7, 0x00000000)
T1614 000:632.289 - 0.010ms returns 0
T1614 000:632.298 JLINK_WriteReg(R8, 0x00000000)
T1614 000:632.318 - 0.023ms returns 0
T1614 000:632.327 JLINK_WriteReg(R9, 0x20000220)
T1614 000:632.335 - 0.011ms returns 0
T1614 000:632.344 JLINK_WriteReg(R10, 0x00000000)
T1614 000:632.351 - 0.010ms returns 0
T1614 000:632.360 JLINK_WriteReg(R11, 0x00000000)
T1614 000:632.368 - 0.011ms returns 0
T1614 000:632.377 JLINK_WriteReg(R12, 0x00000000)
T1614 000:632.384 - 0.010ms returns 0
T1614 000:632.393 JLINK_WriteReg(R13 (SP), 0x20001000)
T1614 000:632.402 - 0.012ms returns 0
T1614 000:632.411 JLINK_WriteReg(R14, 0x20000001)
T1614 000:632.418 - 0.011ms returns 0
T1614 000:632.428 JLINK_WriteReg(R15 (PC), 0x20000038)
T1614 000:632.438 - 0.014ms returns 0
T1614 000:632.447 JLINK_WriteReg(XPSR, 0x01000000)
T1614 000:632.455 - 0.011ms returns 0
T1614 000:632.464 JLINK_WriteReg(MSP, 0x20001000)
T1614 000:632.472 - 0.010ms returns 0
T1614 000:632.481 JLINK_WriteReg(PSP, 0x20001000)
T1614 000:632.488 - 0.011ms returns 0
T1614 000:632.498 JLINK_WriteReg(CFBP, 0x00000000)
T1614 000:632.505 - 0.010ms returns 0
T1614 000:632.515 JLINK_SetBPEx(Addr = 0x20000000, Type = 0xFFFFFFF2)
T1614 000:632.529   CPU_ReadMem(2 bytes @ 0x20000000)
T1614 000:632.996 - 0.498ms returns 0x00000001
T1614 000:633.024 JLINK_Go()
T1614 000:633.041   CPU_WriteMem(2 bytes @ 0x20000000)
T1614 000:633.510   CPU_ReadMem(4 bytes @ 0xE0001000)
T1614 000:634.012   CPU_WriteMem(4 bytes @ 0xE0001000)
T1614 000:634.516   CPU_WriteMem(4 bytes @ 0xE0002008)
T1614 000:634.537   CPU_WriteMem(4 bytes @ 0xE000200C)
T1614 000:634.549   CPU_WriteMem(4 bytes @ 0xE0002010)
T1614 000:634.560   CPU_WriteMem(4 bytes @ 0xE0002014)
T1614 000:636.123   CPU_WriteMem(4 bytes @ 0xE0001004)
T1614 000:639.778 - 6.798ms
T1614 000:639.864 JLINK_IsHalted()
T1614 000:643.209   CPU_ReadMem(2 bytes @ 0x20000000)
T1614 000:643.733 - 3.885ms returns TRUE
T1614 000:643.763 JLINK_ReadReg(R15 (PC))
T1614 000:643.775 - 0.016ms returns 0x20000000
T1614 000:643.785 JLINK_ClrBPEx(BPHandle = 0x00000001)
T1614 000:643.793 - 0.011ms returns 0x00
T1614 000:643.803 JLINK_ReadReg(R0)
T1614 000:643.811 - 0.011ms returns 0x00000000
T1614 000:644.512 JLINK_HasError()
T1614 000:644.542 JLINK_WriteReg(R0, 0x00000000)
T1614 000:644.555 - 0.016ms returns 0
T1614 000:644.565 JLINK_WriteReg(R1, 0x00000200)
T1614 000:644.573 - 0.011ms returns 0
T1614 000:644.582 JLINK_WriteReg(R2, 0x000000FF)
T1614 000:644.589 - 0.010ms returns 0
T1614 000:644.599 JLINK_WriteReg(R3, 0x00000000)
T1614 000:644.606 - 0.010ms returns 0
T1614 000:644.615 JLINK_WriteReg(R4, 0x00000000)
T1614 000:644.622 - 0.010ms returns 0
T1614 000:644.632 JLINK_WriteReg(R5, 0x00000000)
T1614 000:644.639 - 0.010ms returns 0
T1614 000:644.648 JLINK_WriteReg(R6, 0x00000000)
T1614 000:644.656 - 0.011ms returns 0
T1614 000:644.665 JLINK_WriteReg(R7, 0x00000000)
T1614 000:644.672 - 0.010ms returns 0
T1614 000:644.681 JLINK_WriteReg(R8, 0x00000000)
T1614 000:644.689 - 0.011ms returns 0
T1614 000:644.698 JLINK_WriteReg(R9, 0x20000220)
T1614 000:644.705 - 0.011ms returns 0
T1614 000:644.715 JLINK_WriteReg(R10, 0x00000000)
T1614 000:644.722 - 0.011ms returns 0
T1614 000:644.731 JLINK_WriteReg(R11, 0x00000000)
T1614 000:644.739 - 0.010ms returns 0
T1614 000:644.748 JLINK_WriteReg(R12, 0x00000000)
T1614 000:644.755 - 0.010ms returns 0
T1614 000:644.764 JLINK_WriteReg(R13 (SP), 0x20001000)
T1614 000:644.773 - 0.012ms returns 0
T1614 000:644.782 JLINK_WriteReg(R14, 0x20000001)
T1614 000:644.789 - 0.011ms returns 0
T1614 000:644.799 JLINK_WriteReg(R15 (PC), 0x20000020)
T1614 000:644.806 - 0.010ms returns 0
T1614 000:644.816 JLINK_WriteReg(XPSR, 0x01000000)
T1614 000:644.823 - 0.011ms returns 0
T1614 000:644.832 JLINK_WriteReg(MSP, 0x20001000)
T1614 000:644.840 - 0.011ms returns 0
T1614 000:644.849 JLINK_WriteReg(PSP, 0x20001000)
T1614 000:644.856 - 0.010ms returns 0
T1614 000:644.866 JLINK_WriteReg(CFBP, 0x00000000)
T1614 000:644.874 - 0.011ms returns 0
T1614 000:644.884 JLINK_SetBPEx(Addr = 0x20000000, Type = 0xFFFFFFF2)
T1614 000:644.895 - 0.015ms returns 0x00000002
T1614 000:644.907 JLINK_Go()
T1614 000:644.935   CPU_ReadMem(4 bytes @ 0xE0001000)
T1614 000:648.474 - 3.588ms
T1614 000:648.506 JLINK_IsHalted()
T1614 000:651.709   CPU_ReadMem(2 bytes @ 0x20000000)
T1614 000:652.176 - 3.690ms returns TRUE
T1614 000:652.214 JLINK_ReadReg(R15 (PC))
T1614 000:652.233 - 0.024ms returns 0x20000000
T1614 000:652.247 JLINK_ClrBPEx(BPHandle = 0x00000002)
T1614 000:652.258 - 0.016ms returns 0x00
T1614 000:652.273 JLINK_ReadReg(R0)
T1614 000:652.284 - 0.016ms returns 0x00000001
T1614 000:652.299 JLINK_HasError()
T1614 000:652.313 JLINK_WriteReg(R0, 0x00000000)
T1614 000:652.327 - 0.020ms returns 0
T1614 000:652.340 JLINK_WriteReg(R1, 0x00000200)
T1614 000:652.348 - 0.011ms returns 0
T1614 000:652.358 JLINK_WriteReg(R2, 0x000000FF)
T1614 000:652.365 - 0.010ms returns 0
T1614 000:652.374 JLINK_WriteReg(R3, 0x00000000)
T1614 000:652.382 - 0.011ms returns 0
T1614 000:652.391 JLINK_WriteReg(R4, 0x00000000)
T1614 000:652.399 - 0.011ms returns 0
T1614 000:652.408 JLINK_WriteReg(R5, 0x00000000)
T1614 000:652.415 - 0.010ms returns 0
T1614 000:652.425 JLINK_WriteReg(R6, 0x00000000)
T1614 000:652.432 - 0.014ms returns 0
T1614 000:652.449 JLINK_WriteReg(R7, 0x00000000)
T1614 000:652.463 - 0.021ms returns 0
T1614 000:652.478 JLINK_WriteReg(R8, 0x00000000)
T1614 000:652.487 - 0.012ms returns 0
T1614 000:652.497 JLINK_WriteReg(R9, 0x20000220)
T1614 000:652.505 - 0.011ms returns 0
T1614 000:652.514 JLINK_WriteReg(R10, 0x00000000)
T1614 000:652.522 - 0.011ms returns 0
T1614 000:652.531 JLINK_WriteReg(R11, 0x00000000)
T1614 000:652.538 - 0.011ms returns 0
T1614 000:652.548 JLINK_WriteReg(R12, 0x00000000)
T1614 000:652.556 - 0.011ms returns 0
T1614 000:652.565 JLINK_WriteReg(R13 (SP), 0x20001000)
T1614 000:652.650 - 0.089ms returns 0
T1614 000:652.662 JLINK_WriteReg(R14, 0x20000001)
T1614 000:652.669 - 0.011ms returns 0
T1614 000:652.679 JLINK_WriteReg(R15 (PC), 0x200000DC)
T1614 000:652.686 - 0.011ms returns 0
T1614 000:652.695 JLINK_WriteReg(XPSR, 0x01000000)
T1614 000:652.703 - 0.011ms returns 0
T1614 000:652.712 JLINK_WriteReg(MSP, 0x20001000)
T1614 000:652.720 - 0.011ms returns 0
T1614 000:652.730 JLINK_WriteReg(PSP, 0x20001000)
T1614 000:652.738 - 0.016ms returns 0
T1614 000:652.755 JLINK_WriteReg(CFBP, 0x00000000)
T1614 000:652.775 - 0.025ms returns 0
T1614 000:652.792 JLINK_SetBPEx(Addr = 0x20000000, Type = 0xFFFFFFF2)
T1614 000:652.805 - 0.016ms returns 0x00000003
T1614 000:652.815 JLINK_Go()
T1614 000:652.832   CPU_ReadMem(4 bytes @ 0xE0001000)
T1614 000:656.457 - 3.668ms
T1614 000:656.497 JLINK_IsHalted()
T1614 000:656.999 - 0.533ms returns FALSE
T1614 000:657.042 JLINK_HasError()
T1614 000:675.199 JLINK_IsHalted()
T1614 000:675.652 - 0.464ms returns FALSE
T1614 000:675.674 JLINK_HasError()
T1614 000:677.193 JLINK_IsHalted()
T1614 000:680.362   CPU_ReadMem(2 bytes @ 0x20000000)
T1614 000:680.838 - 3.660ms returns TRUE
T1614 000:680.864 JLINK_ReadReg(R15 (PC))
T1614 000:680.876 - 0.015ms returns 0x20000000
T1614 000:680.886 JLINK_ClrBPEx(BPHandle = 0x00000003)
T1614 000:680.894 - 0.011ms returns 0x00
T1614 000:680.904 JLINK_ReadReg(R0)
T1614 000:680.912 - 0.011ms returns 0x00000000
T1614 000:681.573 JLINK_HasError()
T1614 000:681.599 JLINK_WriteReg(R0, 0x00000200)
T1614 000:681.611 - 0.015ms returns 0
T1614 000:681.620 JLINK_WriteReg(R1, 0x00000200)
T1614 000:681.628 - 0.011ms returns 0
T1614 000:681.637 JLINK_WriteReg(R2, 0x000000FF)
T1614 000:681.645 - 0.011ms returns 0
T1614 000:681.655 JLINK_WriteReg(R3, 0x00000000)
T1614 000:681.662 - 0.011ms returns 0
T1614 000:681.672 JLINK_WriteReg(R4, 0x00000000)
T1614 000:681.679 - 0.011ms returns 0
T1614 000:681.688 JLINK_WriteReg(R5, 0x00000000)
T1614 000:681.696 - 0.011ms returns 0
T1614 000:681.705 JLINK_WriteReg(R6, 0x00000000)
T1614 000:681.713 - 0.011ms returns 0
T1614 000:681.722 JLINK_WriteReg(R7, 0x00000000)
T1614 000:681.729 - 0.011ms returns 0
T1614 000:681.739 JLINK_WriteReg(R8, 0x00000000)
T1614 000:681.746 - 0.011ms returns 0
T1614 000:681.755 JLINK_WriteReg(R9, 0x20000220)
T1614 000:681.768 - 0.016ms returns 0
T1614 000:681.778 JLINK_WriteReg(R10, 0x00000000)
T1614 000:681.785 - 0.011ms returns 0
T1614 000:681.794 JLINK_WriteReg(R11, 0x00000000)
T1614 000:681.802 - 0.010ms returns 0
T1614 000:681.811 JLINK_WriteReg(R12, 0x00000000)
T1614 000:681.818 - 0.010ms returns 0
T1614 000:681.827 JLINK_WriteReg(R13 (SP), 0x20001000)
T1614 000:681.836 - 0.012ms returns 0
T1614 000:681.845 JLINK_WriteReg(R14, 0x20000001)
T1614 000:681.853 - 0.011ms returns 0
T1614 000:681.862 JLINK_WriteReg(R15 (PC), 0x20000020)
T1614 000:681.870 - 0.011ms returns 0
T1614 000:681.879 JLINK_WriteReg(XPSR, 0x01000000)
T1614 000:681.887 - 0.011ms returns 0
T1614 000:681.896 JLINK_WriteReg(MSP, 0x20001000)
T1614 000:681.904 - 0.011ms returns 0
T1614 000:681.913 JLINK_WriteReg(PSP, 0x20001000)
T1614 000:681.921 - 0.011ms returns 0
T1614 000:681.930 JLINK_WriteReg(CFBP, 0x00000000)
T1614 000:681.937 - 0.012ms returns 0
T1614 000:681.948 JLINK_SetBPEx(Addr = 0x20000000, Type = 0xFFFFFFF2)
T1614 000:681.963 - 0.019ms returns 0x00000004
T1614 000:681.977 JLINK_Go()
T1614 000:681.997   CPU_ReadMem(4 bytes @ 0xE0001000)
T1614 000:685.484 - 3.528ms
T1614 000:685.521 JLINK_IsHalted()
T1614 000:688.763   CPU_ReadMem(2 bytes @ 0x20000000)
T1614 000:689.297 - 3.799ms returns TRUE
T1614 000:689.340 JLINK_ReadReg(R15 (PC))
T1614 000:689.363 - 0.029ms returns 0x20000000
T1614 000:689.382 JLINK_ClrBPEx(BPHandle = 0x00000004)
T1614 000:689.393 - 0.016ms returns 0x00
T1614 000:689.408 JLINK_ReadReg(R0)
T1614 000:689.419 - 0.015ms returns 0x00000001
T1614 000:689.435 JLINK_HasError()
T1614 000:689.451 JLINK_WriteReg(R0, 0x00000200)
T1614 000:689.462 - 0.016ms returns 0
T1614 000:689.491 JLINK_WriteReg(R1, 0x00000200)
T1614 000:689.536 - 0.050ms returns 0
T1614 000:689.551 JLINK_WriteReg(R2, 0x000000FF)
T1614 000:689.562 - 0.015ms returns 0
T1614 000:689.576 JLINK_WriteReg(R3, 0x00000000)
T1614 000:689.587 - 0.015ms returns 0
T1614 000:689.602 JLINK_WriteReg(R4, 0x00000000)
T1614 000:689.613 - 0.016ms returns 0
T1614 000:689.629 JLINK_WriteReg(R5, 0x00000000)
T1614 000:689.641 - 0.017ms returns 0
T1614 000:689.655 JLINK_WriteReg(R6, 0x00000000)
T1614 000:689.666 - 0.015ms returns 0
T1614 000:689.680 JLINK_WriteReg(R7, 0x00000000)
T1614 000:689.691 - 0.016ms returns 0
T1614 000:689.706 JLINK_WriteReg(R8, 0x00000000)
T1614 000:689.718 - 0.017ms returns 0
T1614 000:689.735 JLINK_WriteReg(R9, 0x20000220)
T1614 000:689.746 - 0.016ms returns 0
T1614 000:689.760 JLINK_WriteReg(R10, 0x00000000)
T1614 000:689.771 - 0.015ms returns 0
T1614 000:689.785 JLINK_WriteReg(R11, 0x00000000)
T1614 000:689.796 - 0.015ms returns 0
T1614 000:689.813 JLINK_WriteReg(R12, 0x00000000)
T1614 000:689.824 - 0.016ms returns 0
T1614 000:689.840 JLINK_WriteReg(R13 (SP), 0x20001000)
T1614 000:689.852 - 0.017ms returns 0
T1614 000:689.867 JLINK_WriteReg(R14, 0x20000001)
T1614 000:689.878 - 0.016ms returns 0
T1614 000:689.895 JLINK_WriteReg(R15 (PC), 0x200000DC)
T1614 000:689.906 - 0.015ms returns 0
T1614 000:689.922 JLINK_WriteReg(XPSR, 0x01000000)
T1614 000:689.935 - 0.018ms returns 0
T1614 000:689.951 JLINK_WriteReg(MSP, 0x20001000)
T1614 000:689.962 - 0.016ms returns 0
T1614 000:689.978 JLINK_WriteReg(PSP, 0x20001000)
T1614 000:689.989 - 0.016ms returns 0
T1614 000:690.006 JLINK_WriteReg(CFBP, 0x00000000)
T1614 000:690.019 - 0.018ms returns 0
T1614 000:690.035 JLINK_SetBPEx(Addr = 0x20000000, Type = 0xFFFFFFF2)
T1614 000:690.049 - 0.019ms returns 0x00000005
T1614 000:690.065 JLINK_Go()
T1614 000:690.090   CPU_ReadMem(4 bytes @ 0xE0001000)
T1614 000:693.725 - 3.682ms
T1614 000:693.762 JLINK_IsHalted()
T1614 000:694.159 - 0.412ms returns FALSE
T1614 000:694.190 JLINK_HasError()
T1614 000:696.184 JLINK_IsHalted()
T1614 000:696.642 - 0.469ms returns FALSE
T1614 000:696.664 JLINK_HasError()
T1614 000:698.160 JLINK_IsHalted()
T1614 000:698.616 - 0.495ms returns FALSE
T1614 000:698.666 JLINK_HasError()
T1614 000:700.162 JLINK_IsHalted()
T1614 000:700.618 - 0.470ms returns FALSE
T1614 000:700.643 JLINK_HasError()
T1614 000:702.154 JLINK_IsHalted()
T1614 000:702.635 - 0.499ms returns FALSE
T1614 000:702.665 JLINK_HasError()
T1614 000:704.188 JLINK_IsHalted()
T1614 000:704.726 - 0.567ms returns FALSE
T1614 000:704.769 JLINK_HasError()
T1614 000:706.209 JLINK_IsHalted()
T1614 000:706.702 - 0.516ms returns FALSE
T1614 000:706.738 JLINK_HasError()
T1614 000:708.161 JLINK_IsHalted()
T1614 000:708.618 - 0.478ms returns FALSE
T1614 000:708.679 JLINK_HasError()
T1614 000:710.157 JLINK_IsHalted()
T1614 000:710.613 - 0.468ms returns FALSE
T1614 000:710.635 JLINK_HasError()
T1614 000:712.151 JLINK_IsHalted()
T1614 000:712.621 - 0.483ms returns FALSE
T1614 000:712.644 JLINK_HasError()
T1614 000:714.170 JLINK_IsHalted()
T1614 000:717.367   CPU_ReadMem(2 bytes @ 0x20000000)
T1614 000:717.869 - 3.710ms returns TRUE
T1614 000:717.891 JLINK_ReadReg(R15 (PC))
T1614 000:717.903 - 0.015ms returns 0x20000000
T1614 000:717.913 JLINK_ClrBPEx(BPHandle = 0x00000005)
T1614 000:717.921 - 0.011ms returns 0x00
T1614 000:717.931 JLINK_ReadReg(R0)
T1614 000:717.938 - 0.011ms returns 0x00000000
T1614 000:718.502 JLINK_HasError()
T1614 000:718.525 JLINK_WriteReg(R0, 0x00000400)
T1614 000:718.536 - 0.014ms returns 0
T1614 000:718.546 JLINK_WriteReg(R1, 0x00000200)
T1614 000:718.553 - 0.011ms returns 0
T1614 000:718.562 JLINK_WriteReg(R2, 0x000000FF)
T1614 000:718.570 - 0.010ms returns 0
T1614 000:718.579 JLINK_WriteReg(R3, 0x00000000)
T1614 000:718.586 - 0.011ms returns 0
T1614 000:718.596 JLINK_WriteReg(R4, 0x00000000)
T1614 000:718.605 - 0.013ms returns 0
T1614 000:718.617 JLINK_WriteReg(R5, 0x00000000)
T1614 000:718.624 - 0.011ms returns 0
T1614 000:718.635 JLINK_WriteReg(R6, 0x00000000)
T1614 000:718.653 - 0.021ms returns 0
T1614 000:718.662 JLINK_WriteReg(R7, 0x00000000)
T1614 000:718.670 - 0.010ms returns 0
T1614 000:718.679 JLINK_WriteReg(R8, 0x00000000)
T1614 000:718.686 - 0.010ms returns 0
T1614 000:718.695 JLINK_WriteReg(R9, 0x20000220)
T1614 000:718.703 - 0.011ms returns 0
T1614 000:718.712 JLINK_WriteReg(R10, 0x00000000)
T1614 000:718.719 - 0.010ms returns 0
T1614 000:718.729 JLINK_WriteReg(R11, 0x00000000)
T1614 000:718.736 - 0.011ms returns 0
T1614 000:718.746 JLINK_WriteReg(R12, 0x00000000)
T1614 000:718.753 - 0.010ms returns 0
T1614 000:718.762 JLINK_WriteReg(R13 (SP), 0x20001000)
T1614 000:718.771 - 0.012ms returns 0
T1614 000:718.780 JLINK_WriteReg(R14, 0x20000001)
T1614 000:718.788 - 0.011ms returns 0
T1614 000:718.797 JLINK_WriteReg(R15 (PC), 0x20000020)
T1614 000:718.804 - 0.011ms returns 0
T1614 000:718.813 JLINK_WriteReg(XPSR, 0x01000000)
T1614 000:718.821 - 0.011ms returns 0
T1614 000:718.831 JLINK_WriteReg(MSP, 0x20001000)
T1614 000:718.838 - 0.011ms returns 0
T1614 000:718.847 JLINK_WriteReg(PSP, 0x20001000)
T1614 000:718.855 - 0.010ms returns 0
T1614 000:718.864 JLINK_WriteReg(CFBP, 0x00000000)
T1614 000:718.872 - 0.010ms returns 0
T1614 000:718.881 JLINK_SetBPEx(Addr = 0x20000000, Type = 0xFFFFFFF2)
T1614 000:718.890 - 0.013ms returns 0x00000006
T1614 000:718.900 JLINK_Go()
T1614 000:718.917   CPU_ReadMem(4 bytes @ 0xE0001000)
T1614 000:722.665 - 3.794ms
T1614 000:722.721 JLINK_IsHalted()
T1614 000:726.035   CPU_ReadMem(2 bytes @ 0x20000000)
T1614 000:726.513 - 3.807ms returns TRUE
T1614 000:726.543 JLINK_ReadReg(R15 (PC))
T1614 000:726.555 - 0.016ms returns 0x20000000
T1614 000:726.566 JLINK_ClrBPEx(BPHandle = 0x00000006)
T1614 000:726.575 - 0.012ms returns 0x00
T1614 000:726.587 JLINK_ReadReg(R0)
T1614 000:726.604 - 0.021ms returns 0x00000001
T1614 000:726.621 JLINK_HasError()
T1614 000:726.643 JLINK_WriteReg(R0, 0x00000400)
T1614 000:726.660 - 0.020ms returns 0
T1614 000:726.675 JLINK_WriteReg(R1, 0x00000200)
T1614 000:726.690 - 0.019ms returns 0
T1614 000:726.705 JLINK_WriteReg(R2, 0x000000FF)
T1614 000:726.721 - 0.019ms returns 0
T1614 000:726.736 JLINK_WriteReg(R3, 0x00000000)
T1614 000:726.751 - 0.019ms returns 0
T1614 000:726.766 JLINK_WriteReg(R4, 0x00000000)
T1614 000:726.781 - 0.019ms returns 0
T1614 000:726.796 JLINK_WriteReg(R5, 0x00000000)
T1614 000:726.811 - 0.019ms returns 0
T1614 000:726.826 JLINK_WriteReg(R6, 0x00000000)
T1614 000:726.841 - 0.019ms returns 0
T1614 000:726.856 JLINK_WriteReg(R7, 0x00000000)
T1614 000:726.872 - 0.019ms returns 0
T1614 000:726.887 JLINK_WriteReg(R8, 0x00000000)
T1614 000:726.902 - 0.019ms returns 0
T1614 000:726.916 JLINK_WriteReg(R9, 0x20000220)
T1614 000:726.932 - 0.020ms returns 0
T1614 000:726.947 JLINK_WriteReg(R10, 0x00000000)
T1614 000:726.963 - 0.019ms returns 0
T1614 000:726.980 JLINK_WriteReg(R11, 0x00000000)
T1614 000:726.996 - 0.021ms returns 0
T1614 000:727.014 JLINK_WriteReg(R12, 0x00000000)
T1614 000:727.029 - 0.019ms returns 0
T1614 000:727.044 JLINK_WriteReg(R13 (SP), 0x20001000)
T1614 000:727.059 - 0.020ms returns 0
T1614 000:727.075 JLINK_WriteReg(R14, 0x20000001)
T1614 000:727.090 - 0.019ms returns 0
T1614 000:727.105 JLINK_WriteReg(R15 (PC), 0x200000DC)
T1614 000:727.120 - 0.020ms returns 0
T1614 000:727.136 JLINK_WriteReg(XPSR, 0x01000000)
T1614 000:727.156 - 0.027ms returns 0
T1614 000:727.174 JLINK_WriteReg(MSP, 0x20001000)
T1614 000:727.190 - 0.019ms returns 0
T1614 000:727.205 JLINK_WriteReg(PSP, 0x20001000)
T1614 000:727.220 - 0.019ms returns 0
T1614 000:727.235 JLINK_WriteReg(CFBP, 0x00000000)
T1614 000:727.251 - 0.019ms returns 0
T1614 000:727.266 JLINK_SetBPEx(Addr = 0x20000000, Type = 0xFFFFFFF2)
T1614 000:727.283 - 0.021ms returns 0x00000007
T1614 000:727.299 JLINK_Go()
T1614 000:727.322   CPU_ReadMem(4 bytes @ 0xE0001000)
T1614 000:730.990 - 3.712ms
T1614 000:731.026 JLINK_IsHalted()
T1614 000:731.438 - 0.423ms returns FALSE
T1614 000:731.462 JLINK_HasError()
T1614 000:737.229 JLINK_IsHalted()
T1614 000:738.036 - 0.832ms returns FALSE
T1614 000:738.071 JLINK_HasError()
T1614 000:740.194 JLINK_IsHalted()
T1614 000:740.735 - 0.556ms returns FALSE
T1614 000:740.761 JLINK_HasError()
T1614 000:742.151 JLINK_IsHalted()
T1614 000:742.606 - 0.467ms returns FALSE
T1614 000:742.629 JLINK_HasError()
T1614 000:744.146 JLINK_IsHalted()
T1614 000:744.598 - 0.463ms returns FALSE
T1614 000:744.620 JLINK_HasError()
T1614 000:746.174 JLINK_IsHalted()
T1614 000:746.622 - 0.459ms returns FALSE
T1614 000:746.643 JLINK_HasError()
T1614 000:748.136 JLINK_IsHalted()
T1614 000:748.591 - 0.467ms returns FALSE
T1614 000:748.624 JLINK_HasError()
T1614 000:750.129 JLINK_IsHalted()
T1614 000:750.583 - 0.468ms returns FALSE
T1614 000:750.607 JLINK_HasError()
T1614 000:752.123 JLINK_IsHalted()
T1614 000:755.276   CPU_ReadMem(2 bytes @ 0x20000000)
T1614 000:755.785 - 3.690ms returns TRUE
T1614 000:755.830 JLINK_ReadReg(R15 (PC))
T1614 000:755.848 - 0.024ms returns 0x20000000
T1614 000:755.863 JLINK_ClrBPEx(BPHandle = 0x00000007)
T1614 000:755.875 - 0.017ms returns 0x00
T1614 000:755.893 JLINK_ReadReg(R0)
T1614 000:755.904 - 0.016ms returns 0x00000000
T1614 000:757.282 JLINK_HasError()
T1614 000:757.320 JLINK_WriteReg(R0, 0x00000600)
T1614 000:757.335 - 0.018ms returns 0
T1614 000:757.345 JLINK_WriteReg(R1, 0x00000200)
T1614 000:757.353 - 0.011ms returns 0
T1614 000:757.363 JLINK_WriteReg(R2, 0x000000FF)
T1614 000:757.370 - 0.010ms returns 0
T1614 000:757.379 JLINK_WriteReg(R3, 0x00000000)
T1614 000:757.387 - 0.011ms returns 0
T1614 000:757.396 JLINK_WriteReg(R4, 0x00000000)
T1614 000:757.403 - 0.010ms returns 0
T1614 000:757.412 JLINK_WriteReg(R5, 0x00000000)
T1614 000:757.420 - 0.010ms returns 0
T1614 000:757.429 JLINK_WriteReg(R6, 0x00000000)
T1614 000:757.437 - 0.011ms returns 0
T1614 000:757.446 JLINK_WriteReg(R7, 0x00000000)
T1614 000:757.453 - 0.011ms returns 0
T1614 000:757.462 JLINK_WriteReg(R8, 0x00000000)
T1614 000:757.470 - 0.011ms returns 0
T1614 000:757.479 JLINK_WriteReg(R9, 0x20000220)
T1614 000:757.487 - 0.011ms returns 0
T1614 000:757.497 JLINK_WriteReg(R10, 0x00000000)
T1614 000:757.504 - 0.011ms returns 0
T1614 000:757.514 JLINK_WriteReg(R11, 0x00000000)
T1614 000:757.521 - 0.011ms returns 0
T1614 000:757.530 JLINK_WriteReg(R12, 0x00000000)
T1614 000:757.538 - 0.010ms returns 0
T1614 000:757.547 JLINK_WriteReg(R13 (SP), 0x20001000)
T1614 000:757.556 - 0.012ms returns 0
T1614 000:757.565 JLINK_WriteReg(R14, 0x20000001)
T1614 000:757.573 - 0.011ms returns 0
T1614 000:757.582 JLINK_WriteReg(R15 (PC), 0x20000020)
T1614 000:757.590 - 0.011ms returns 0
T1614 000:757.599 JLINK_WriteReg(XPSR, 0x01000000)
T1614 000:757.607 - 0.011ms returns 0
T1614 000:757.616 JLINK_WriteReg(MSP, 0x20001000)
T1614 000:757.623 - 0.011ms returns 0
T1614 000:757.632 JLINK_WriteReg(PSP, 0x20001000)
T1614 000:757.640 - 0.011ms returns 0
T1614 000:757.649 JLINK_WriteReg(CFBP, 0x00000000)
T1614 000:757.657 - 0.011ms returns 0
T1614 000:757.667 JLINK_SetBPEx(Addr = 0x20000000, Type = 0xFFFFFFF2)
T1614 000:757.676 - 0.013ms returns 0x00000008
T1614 000:757.686 JLINK_Go()
T1614 000:757.705   CPU_ReadMem(4 bytes @ 0xE0001000)
T1614 000:761.185 - 3.530ms
T1614 000:761.232 JLINK_IsHalted()
T1614 000:764.390   CPU_ReadMem(2 bytes @ 0x20000000)
T1614 000:764.898 - 3.677ms returns TRUE
T1614 000:764.921 JLINK_ReadReg(R15 (PC))
T1614 000:764.932 - 0.015ms returns 0x20000000
T1614 000:764.942 JLINK_ClrBPEx(BPHandle = 0x00000008)
T1614 000:764.951 - 0.011ms returns 0x00
T1614 000:764.960 JLINK_ReadReg(R0)
T1614 000:764.968 - 0.011ms returns 0x00000001
T1614 000:764.978 JLINK_HasError()
T1614 000:764.988 JLINK_WriteReg(R0, 0x00000600)
T1614 000:764.997 - 0.012ms returns 0
T1614 000:765.006 JLINK_WriteReg(R1, 0x00000200)
T1614 000:765.014 - 0.011ms returns 0
T1614 000:765.023 JLINK_WriteReg(R2, 0x000000FF)
T1614 000:765.031 - 0.011ms returns 0
T1614 000:765.040 JLINK_WriteReg(R3, 0x00000000)
T1614 000:765.048 - 0.011ms returns 0
T1614 000:765.057 JLINK_WriteReg(R4, 0x00000000)
T1614 000:765.130 - 0.085ms returns 0
T1614 000:765.156 JLINK_WriteReg(R5, 0x00000000)
T1614 000:765.167 - 0.014ms returns 0
T1614 000:765.177 JLINK_WriteReg(R6, 0x00000000)
T1614 000:765.184 - 0.011ms returns 0
T1614 000:765.193 JLINK_WriteReg(R7, 0x00000000)
T1614 000:765.201 - 0.011ms returns 0
T1614 000:765.210 JLINK_WriteReg(R8, 0x00000000)
T1614 000:765.218 - 0.011ms returns 0
T1614 000:765.227 JLINK_WriteReg(R9, 0x20000220)
T1614 000:765.234 - 0.010ms returns 0
T1614 000:765.243 JLINK_WriteReg(R10, 0x00000000)
T1614 000:765.250 - 0.010ms returns 0
T1614 000:765.260 JLINK_WriteReg(R11, 0x00000000)
T1614 000:765.267 - 0.011ms returns 0
T1614 000:765.278 JLINK_WriteReg(R12, 0x00000000)
T1614 000:765.287 - 0.013ms returns 0
T1614 000:765.297 JLINK_WriteReg(R13 (SP), 0x20001000)
T1614 000:765.308 - 0.015ms returns 0
T1614 000:765.320 JLINK_WriteReg(R14, 0x20000001)
T1614 000:765.328 - 0.011ms returns 0
T1614 000:765.337 JLINK_WriteReg(R15 (PC), 0x200000DC)
T1614 000:765.344 - 0.010ms returns 0
T1614 000:765.353 JLINK_WriteReg(XPSR, 0x01000000)
T1614 000:765.361 - 0.011ms returns 0
T1614 000:765.370 JLINK_WriteReg(MSP, 0x20001000)
T1614 000:765.377 - 0.010ms returns 0
T1614 000:765.387 JLINK_WriteReg(PSP, 0x20001000)
T1614 000:765.395 - 0.011ms returns 0
T1614 000:765.405 JLINK_WriteReg(CFBP, 0x00000000)
T1614 000:765.413 - 0.012ms returns 0
T1614 000:765.424 JLINK_SetBPEx(Addr = 0x20000000, Type = 0xFFFFFFF2)
T1614 000:765.436 - 0.015ms returns 0x00000009
T1614 000:765.446 JLINK_Go()
T1614 000:765.467   CPU_ReadMem(4 bytes @ 0xE0001000)
T1614 000:769.015 - 3.590ms
T1614 000:769.048 JLINK_IsHalted()
T1614 000:769.473 - 0.437ms returns FALSE
T1614 000:769.496 JLINK_HasError()
T1614 000:772.127 JLINK_IsHalted()
T1614 000:772.670 - 0.575ms returns FALSE
T1614 000:772.721 JLINK_HasError()
T1614 000:774.210 JLINK_IsHalted()
T1614 000:774.692 - 0.495ms returns FALSE
T1614 000:774.715 JLINK_HasError()
T1614 000:776.223 JLINK_IsHalted()
T1614 000:776.684 - 0.474ms returns FALSE
T1614 000:776.708 JLINK_HasError()
T1614 000:778.194 JLINK_IsHalted()
T1614 000:778.669 - 0.488ms returns FALSE
T1614 000:778.692 JLINK_HasError()
T1614 000:780.188 JLINK_IsHalted()
T1614 000:780.632 - 0.455ms returns FALSE
T1614 000:780.653 JLINK_HasError()
T1614 000:782.182 JLINK_IsHalted()
T1614 000:782.639 - 0.472ms returns FALSE
T1614 000:782.671 JLINK_HasError()
T1614 000:784.178 JLINK_IsHalted()
T1614 000:784.632 - 0.466ms returns FALSE
T1614 000:784.654 JLINK_HasError()
T1614 000:786.150 JLINK_IsHalted()
T1614 000:786.609 - 0.479ms returns FALSE
T1614 000:786.644 JLINK_HasError()
T1614 000:788.174 JLINK_IsHalted()
T1614 000:788.614 - 0.465ms returns FALSE
T1614 000:788.657 JLINK_HasError()
T1614 000:790.169 JLINK_IsHalted()
T1614 000:793.362   CPU_ReadMem(2 bytes @ 0x20000000)
T1614 000:793.834 - 3.683ms returns TRUE
T1614 000:793.866 JLINK_ReadReg(R15 (PC))
T1614 000:793.884 - 0.022ms returns 0x20000000
T1614 000:793.895 JLINK_ClrBPEx(BPHandle = 0x00000009)
T1614 000:793.904 - 0.012ms returns 0x00
T1614 000:793.915 JLINK_ReadReg(R0)
T1614 000:793.923 - 0.012ms returns 0x00000000
T1614 000:794.604 JLINK_HasError()
T1614 000:794.633 JLINK_WriteReg(R0, 0x00000800)
T1614 000:794.644 - 0.015ms returns 0
T1614 000:794.654 JLINK_WriteReg(R1, 0x00000200)
T1614 000:794.662 - 0.011ms returns 0
T1614 000:794.671 JLINK_WriteReg(R2, 0x000000FF)
T1614 000:794.678 - 0.010ms returns 0
T1614 000:794.688 JLINK_WriteReg(R3, 0x00000000)
T1614 000:794.695 - 0.011ms returns 0
T1614 000:794.705 JLINK_WriteReg(R4, 0x00000000)
T1614 000:794.713 - 0.011ms returns 0
T1614 000:794.722 JLINK_WriteReg(R5, 0x00000000)
T1614 000:794.730 - 0.011ms returns 0
T1614 000:794.739 JLINK_WriteReg(R6, 0x00000000)
T1614 000:794.746 - 0.011ms returns 0
T1614 000:794.756 JLINK_WriteReg(R7, 0x00000000)
T1614 000:794.763 - 0.010ms returns 0
T1614 000:794.772 JLINK_WriteReg(R8, 0x00000000)
T1614 000:794.780 - 0.011ms returns 0
T1614 000:794.789 JLINK_WriteReg(R9, 0x20000220)
T1614 000:794.797 - 0.016ms returns 0
T1614 000:794.814 JLINK_WriteReg(R10, 0x00000000)
T1614 000:794.821 - 0.011ms returns 0
T1614 000:794.830 JLINK_WriteReg(R11, 0x00000000)
T1614 000:794.838 - 0.010ms returns 0
T1614 000:794.847 JLINK_WriteReg(R12, 0x00000000)
T1614 000:794.855 - 0.011ms returns 0
T1614 000:794.864 JLINK_WriteReg(R13 (SP), 0x20001000)
T1614 000:794.873 - 0.012ms returns 0
T1614 000:794.882 JLINK_WriteReg(R14, 0x20000001)
T1614 000:794.889 - 0.011ms returns 0
T1614 000:794.898 JLINK_WriteReg(R15 (PC), 0x20000020)
T1614 000:794.906 - 0.011ms returns 0
T1614 000:794.916 JLINK_WriteReg(XPSR, 0x01000000)
T1614 000:794.923 - 0.010ms returns 0
T1614 000:794.932 JLINK_WriteReg(MSP, 0x20001000)
T1614 000:794.940 - 0.011ms returns 0
T1614 000:794.949 JLINK_WriteReg(PSP, 0x20001000)
T1614 000:794.957 - 0.011ms returns 0
T1614 000:794.966 JLINK_WriteReg(CFBP, 0x00000000)
T1614 000:794.974 - 0.011ms returns 0
T1614 000:794.984 JLINK_SetBPEx(Addr = 0x20000000, Type = 0xFFFFFFF2)
T1614 000:794.993 - 0.013ms returns 0x0000000A
T1614 000:795.003 JLINK_Go()
T1614 000:795.020   CPU_ReadMem(4 bytes @ 0xE0001000)
T1614 000:798.569 - 3.587ms
T1614 000:798.602 JLINK_IsHalted()
T1614 000:801.775   CPU_ReadMem(2 bytes @ 0x20000000)
T1614 000:802.317 - 3.727ms returns TRUE
T1614 000:802.340 JLINK_ReadReg(R15 (PC))
T1614 000:802.352 - 0.015ms returns 0x20000000
T1614 000:802.363 JLINK_ClrBPEx(BPHandle = 0x0000000A)
T1614 000:802.371 - 0.011ms returns 0x00
T1614 000:802.381 JLINK_ReadReg(R0)
T1614 000:802.388 - 0.011ms returns 0x00000001
T1614 000:802.399 JLINK_HasError()
T1614 000:802.409 JLINK_WriteReg(R0, 0x00000800)
T1614 000:802.417 - 0.012ms returns 0
T1614 000:802.427 JLINK_WriteReg(R1, 0x00000200)
T1614 000:802.435 - 0.011ms returns 0
T1614 000:802.444 JLINK_WriteReg(R2, 0x000000FF)
T1614 000:802.452 - 0.011ms returns 0
T1614 000:802.461 JLINK_WriteReg(R3, 0x00000000)
T1614 000:802.468 - 0.010ms returns 0
T1614 000:802.478 JLINK_WriteReg(R4, 0x00000000)
T1614 000:802.485 - 0.011ms returns 0
T1614 000:802.495 JLINK_WriteReg(R5, 0x00000000)
T1614 000:802.502 - 0.011ms returns 0
T1614 000:802.512 JLINK_WriteReg(R6, 0x00000000)
T1614 000:802.519 - 0.011ms returns 0
T1614 000:802.529 JLINK_WriteReg(R7, 0x00000000)
T1614 000:802.536 - 0.011ms returns 0
T1614 000:802.545 JLINK_WriteReg(R8, 0x00000000)
T1614 000:802.553 - 0.011ms returns 0
T1614 000:802.562 JLINK_WriteReg(R9, 0x20000220)
T1614 000:802.570 - 0.011ms returns 0
T1614 000:802.580 JLINK_WriteReg(R10, 0x00000000)
T1614 000:802.592 - 0.018ms returns 0
T1614 000:802.605 JLINK_WriteReg(R11, 0x00000000)
T1614 000:802.613 - 0.011ms returns 0
T1614 000:802.622 JLINK_WriteReg(R12, 0x00000000)
T1614 000:802.630 - 0.011ms returns 0
T1614 000:802.639 JLINK_WriteReg(R13 (SP), 0x20001000)
T1614 000:802.647 - 0.011ms returns 0
T1614 000:802.656 JLINK_WriteReg(R14, 0x20000001)
T1614 000:802.664 - 0.011ms returns 0
T1614 000:802.674 JLINK_WriteReg(R15 (PC), 0x200000DC)
T1614 000:802.682 - 0.011ms returns 0
T1614 000:802.691 JLINK_WriteReg(XPSR, 0x01000000)
T1614 000:802.699 - 0.012ms returns 0
T1614 000:802.709 JLINK_WriteReg(MSP, 0x20001000)
T1614 000:802.718 - 0.013ms returns 0
T1614 000:802.729 JLINK_WriteReg(PSP, 0x20001000)
T1614 000:802.739 - 0.015ms returns 0
T1614 000:802.751 JLINK_WriteReg(CFBP, 0x00000000)
T1614 000:802.762 - 0.018ms returns 0
T1614 000:802.776 JLINK_SetBPEx(Addr = 0x20000000, Type = 0xFFFFFFF2)
T1614 000:802.786 - 0.014ms returns 0x0000000B
T1614 000:802.796 JLINK_Go()
T1614 000:802.812   CPU_ReadMem(4 bytes @ 0xE0001000)
T1614 000:806.403 - 3.638ms
T1614 000:806.450 JLINK_IsHalted()
T1614 000:807.035 - 0.613ms returns FALSE
T1614 000:807.078 JLINK_HasError()
T1614 000:809.106 JLINK_IsHalted()
T1614 000:809.590 - 0.497ms returns FALSE
T1614 000:809.614 JLINK_HasError()
T1614 000:811.134 JLINK_IsHalted()
T1614 000:811.621 - 0.500ms returns FALSE
T1614 000:811.644 JLINK_HasError()
T1614 000:813.142 JLINK_IsHalted()
T1614 000:813.595 - 0.467ms returns FALSE
T1614 000:813.633 JLINK_HasError()
T1614 000:815.164 JLINK_IsHalted()
T1614 000:815.613 - 0.461ms returns FALSE
T1614 000:815.635 JLINK_HasError()
T1614 000:817.159 JLINK_IsHalted()
T1614 000:817.601 - 0.454ms returns FALSE
T1614 000:817.623 JLINK_HasError()
T1614 000:819.146 JLINK_IsHalted()
T1614 000:819.617 - 0.482ms returns FALSE
T1614 000:819.639 JLINK_HasError()
T1614 000:821.207 JLINK_IsHalted()
T1614 000:821.710 - 0.538ms returns FALSE
T1614 000:821.755 JLINK_HasError()
T1614 000:823.164 JLINK_IsHalted()
T1614 000:823.830 - 0.705ms returns FALSE
T1614 000:823.883 JLINK_HasError()
T1614 000:830.093 JLINK_IsHalted()
T1614 000:833.241   CPU_ReadMem(2 bytes @ 0x20000000)
T1614 000:833.696 - 3.620ms returns TRUE
T1614 000:833.730 JLINK_ReadReg(R15 (PC))
T1614 000:833.746 - 0.021ms returns 0x20000000
T1614 000:833.763 JLINK_ClrBPEx(BPHandle = 0x0000000B)
T1614 000:833.774 - 0.017ms returns 0x00
T1614 000:833.792 JLINK_ReadReg(R0)
T1614 000:833.801 - 0.012ms returns 0x00000000
T1614 000:834.380 JLINK_HasError()
T1614 000:834.405 JLINK_WriteReg(R0, 0x00000A00)
T1614 000:834.416 - 0.015ms returns 0
T1614 000:834.426 JLINK_WriteReg(R1, 0x00000200)
T1614 000:834.434 - 0.012ms returns 0
T1614 000:834.447 JLINK_WriteReg(R2, 0x000000FF)
T1614 000:834.455 - 0.012ms returns 0
T1614 000:834.466 JLINK_WriteReg(R3, 0x00000000)
T1614 000:834.475 - 0.012ms returns 0
T1614 000:834.485 JLINK_WriteReg(R4, 0x00000000)
T1614 000:834.492 - 0.010ms returns 0
T1614 000:834.501 JLINK_WriteReg(R5, 0x00000000)
T1614 000:834.509 - 0.011ms returns 0
T1614 000:834.518 JLINK_WriteReg(R6, 0x00000000)
T1614 000:834.525 - 0.011ms returns 0
T1614 000:834.535 JLINK_WriteReg(R7, 0x00000000)
T1614 000:834.542 - 0.010ms returns 0
T1614 000:834.551 JLINK_WriteReg(R8, 0x00000000)
T1614 000:834.559 - 0.011ms returns 0
T1614 000:834.568 JLINK_WriteReg(R9, 0x20000220)
T1614 000:834.575 - 0.011ms returns 0
T1614 000:834.585 JLINK_WriteReg(R10, 0x00000000)
T1614 000:834.592 - 0.010ms returns 0
T1614 000:834.601 JLINK_WriteReg(R11, 0x00000000)
T1614 000:834.608 - 0.010ms returns 0
T1614 000:834.618 JLINK_WriteReg(R12, 0x00000000)
T1614 000:834.625 - 0.010ms returns 0
T1614 000:834.634 JLINK_WriteReg(R13 (SP), 0x20001000)
T1614 000:834.643 - 0.012ms returns 0
T1614 000:834.652 JLINK_WriteReg(R14, 0x20000001)
T1614 000:834.660 - 0.011ms returns 0
T1614 000:834.670 JLINK_WriteReg(R15 (PC), 0x20000020)
T1614 000:834.677 - 0.011ms returns 0
T1614 000:834.687 JLINK_WriteReg(XPSR, 0x01000000)
T1614 000:834.694 - 0.011ms returns 0
T1614 000:834.703 JLINK_WriteReg(MSP, 0x20001000)
T1614 000:834.711 - 0.011ms returns 0
T1614 000:834.721 JLINK_WriteReg(PSP, 0x20001000)
T1614 000:834.728 - 0.011ms returns 0
T1614 000:834.737 JLINK_WriteReg(CFBP, 0x00000000)
T1614 000:834.749 - 0.015ms returns 0
T1614 000:834.759 JLINK_SetBPEx(Addr = 0x20000000, Type = 0xFFFFFFF2)
T1614 000:834.768 - 0.012ms returns 0x0000000C
T1614 000:834.778 JLINK_Go()
T1614 000:834.795   CPU_ReadMem(4 bytes @ 0xE0001000)
T1614 000:838.352 - 3.600ms
T1614 000:838.395 JLINK_IsHalted()
T1614 000:841.571   CPU_ReadMem(2 bytes @ 0x20000000)
T1614 000:842.061 - 3.680ms returns TRUE
T1614 000:842.092 JLINK_ReadReg(R15 (PC))
T1614 000:842.106 - 0.017ms returns 0x20000000
T1614 000:842.116 JLINK_ClrBPEx(BPHandle = 0x0000000C)
T1614 000:842.125 - 0.011ms returns 0x00
T1614 000:842.134 JLINK_ReadReg(R0)
T1614 000:842.142 - 0.011ms returns 0x00000001
T1614 000:842.152 JLINK_HasError()
T1614 000:842.162 JLINK_WriteReg(R0, 0x00000A00)
T1614 000:842.170 - 0.012ms returns 0
T1614 000:842.180 JLINK_WriteReg(R1, 0x00000200)
T1614 000:842.187 - 0.010ms returns 0
T1614 000:842.196 JLINK_WriteReg(R2, 0x000000FF)
T1614 000:842.204 - 0.010ms returns 0
T1614 000:842.213 JLINK_WriteReg(R3, 0x00000000)
T1614 000:842.220 - 0.011ms returns 0
T1614 000:842.230 JLINK_WriteReg(R4, 0x00000000)
T1614 000:842.237 - 0.010ms returns 0
T1614 000:842.246 JLINK_WriteReg(R5, 0x00000000)
T1614 000:842.253 - 0.010ms returns 0
T1614 000:842.263 JLINK_WriteReg(R6, 0x00000000)
T1614 000:842.274 - 0.017ms returns 0
T1614 000:842.286 JLINK_WriteReg(R7, 0x00000000)
T1614 000:842.294 - 0.010ms returns 0
T1614 000:842.303 JLINK_WriteReg(R8, 0x00000000)
T1614 000:842.310 - 0.010ms returns 0
T1614 000:842.319 JLINK_WriteReg(R9, 0x20000220)
T1614 000:842.327 - 0.010ms returns 0
T1614 000:842.336 JLINK_WriteReg(R10, 0x00000000)
T1614 000:842.343 - 0.010ms returns 0
T1614 000:842.353 JLINK_WriteReg(R11, 0x00000000)
T1614 000:842.360 - 0.010ms returns 0
T1614 000:842.369 JLINK_WriteReg(R12, 0x00000000)
T1614 000:842.377 - 0.011ms returns 0
T1614 000:842.386 JLINK_WriteReg(R13 (SP), 0x20001000)
T1614 000:842.394 - 0.011ms returns 0
T1614 000:842.403 JLINK_WriteReg(R14, 0x20000001)
T1614 000:842.411 - 0.011ms returns 0
T1614 000:842.420 JLINK_WriteReg(R15 (PC), 0x200000DC)
T1614 000:842.427 - 0.010ms returns 0
T1614 000:842.436 JLINK_WriteReg(XPSR, 0x01000000)
T1614 000:842.444 - 0.011ms returns 0
T1614 000:842.454 JLINK_WriteReg(MSP, 0x20001000)
T1614 000:842.461 - 0.011ms returns 0
T1614 000:842.470 JLINK_WriteReg(PSP, 0x20001000)
T1614 000:842.478 - 0.010ms returns 0
T1614 000:842.487 JLINK_WriteReg(CFBP, 0x00000000)
T1614 000:842.495 - 0.011ms returns 0
T1614 000:842.504 JLINK_SetBPEx(Addr = 0x20000000, Type = 0xFFFFFFF2)
T1614 000:842.513 - 0.012ms returns 0x0000000D
T1614 000:842.523 JLINK_Go()
T1614 000:842.537   CPU_ReadMem(4 bytes @ 0xE0001000)
T1614 000:846.021 - 3.521ms
T1614 000:846.057 JLINK_IsHalted()
T1614 000:846.485 - 0.450ms returns FALSE
T1614 000:846.519 JLINK_HasError()
T1614 000:848.120 JLINK_IsHalted()
T1614 000:848.570 - 0.461ms returns FALSE
T1614 000:848.592 JLINK_HasError()
T1614 000:850.120 JLINK_IsHalted()
T1614 000:850.566 - 0.458ms returns FALSE
T1614 000:850.588 JLINK_HasError()
T1614 000:852.114 JLINK_IsHalted()
T1614 000:852.561 - 0.460ms returns FALSE
T1614 000:852.593 JLINK_HasError()
T1614 000:854.158 JLINK_IsHalted()
T1614 000:854.708 - 0.600ms returns FALSE
T1614 000:854.775 JLINK_HasError()
T1614 000:856.229 JLINK_IsHalted()
T1614 000:856.712 - 0.502ms returns FALSE
T1614 000:856.747 JLINK_HasError()
T1614 000:858.098 JLINK_IsHalted()
T1614 000:858.542 - 0.462ms returns FALSE
T1614 000:858.576 JLINK_HasError()
T1614 000:860.122 JLINK_IsHalted()
T1614 000:860.607 - 0.497ms returns FALSE
T1614 000:860.629 JLINK_HasError()
T1614 000:862.087 JLINK_IsHalted()
T1614 000:862.540 - 0.466ms returns FALSE
T1614 000:862.563 JLINK_HasError()
T1614 000:864.129 JLINK_IsHalted()
T1614 000:864.578 - 0.460ms returns FALSE
T1614 000:864.600 JLINK_HasError()
T1614 000:866.161 JLINK_IsHalted()
T1614 000:869.317   CPU_ReadMem(2 bytes @ 0x20000000)
T1614 000:869.771 - 3.628ms returns TRUE
T1614 000:869.805 JLINK_ReadReg(R15 (PC))
T1614 000:869.830 - 0.031ms returns 0x20000000
T1614 000:869.845 JLINK_ClrBPEx(BPHandle = 0x0000000D)
T1614 000:869.857 - 0.017ms returns 0x00
T1614 000:869.872 JLINK_ReadReg(R0)
T1614 000:869.883 - 0.016ms returns 0x00000000
T1614 000:870.731 JLINK_HasError()
T1614 000:870.842 JLINK_WriteReg(R0, 0x00000C00)
T1614 000:870.877 - 0.041ms returns 0
T1614 000:870.895 JLINK_WriteReg(R1, 0x00000200)
T1614 000:870.906 - 0.016ms returns 0
T1614 000:870.919 JLINK_WriteReg(R2, 0x000000FF)
T1614 000:870.932 - 0.019ms returns 0
T1614 000:870.947 JLINK_WriteReg(R3, 0x00000000)
T1614 000:870.959 - 0.017ms returns 0
T1614 000:870.974 JLINK_WriteReg(R4, 0x00000000)
T1614 000:870.993 - 0.025ms returns 0
T1614 000:871.011 JLINK_WriteReg(R5, 0x00000000)
T1614 000:871.027 - 0.023ms returns 0
T1614 000:871.046 JLINK_WriteReg(R6, 0x00000000)
T1614 000:871.057 - 0.017ms returns 0
T1614 000:871.083 JLINK_WriteReg(R7, 0x00000000)
T1614 000:871.210 - 0.135ms returns 0
T1614 000:871.231 JLINK_WriteReg(R8, 0x00000000)
T1614 000:871.254 - 0.037ms returns 0
T1614 000:871.278 JLINK_WriteReg(R9, 0x20000220)
T1614 000:871.292 - 0.019ms returns 0
T1614 000:871.306 JLINK_WriteReg(R10, 0x00000000)
T1614 000:871.317 - 0.016ms returns 0
T1614 000:871.331 JLINK_WriteReg(R11, 0x00000000)
T1614 000:871.341 - 0.022ms returns 0
T1614 000:871.368 JLINK_WriteReg(R12, 0x00000000)
T1614 000:871.378 - 0.015ms returns 0
T1614 000:871.391 JLINK_WriteReg(R13 (SP), 0x20001000)
T1614 000:871.403 - 0.017ms returns 0
T1614 000:871.416 JLINK_WriteReg(R14, 0x20000001)
T1614 000:871.427 - 0.015ms returns 0
T1614 000:871.440 JLINK_WriteReg(R15 (PC), 0x20000020)
T1614 000:871.451 - 0.016ms returns 0
T1614 000:871.464 JLINK_WriteReg(XPSR, 0x01000000)
T1614 000:871.475 - 0.016ms returns 0
T1614 000:871.488 JLINK_WriteReg(MSP, 0x20001000)
T1614 000:871.499 - 0.016ms returns 0
T1614 000:871.512 JLINK_WriteReg(PSP, 0x20001000)
T1614 000:871.523 - 0.015ms returns 0
T1614 000:871.536 JLINK_WriteReg(CFBP, 0x00000000)
T1614 000:871.547 - 0.016ms returns 0
T1614 000:871.561 JLINK_SetBPEx(Addr = 0x20000000, Type = 0xFFFFFFF2)
T1614 000:871.575 - 0.018ms returns 0x0000000E
T1614 000:871.588 JLINK_Go()
T1614 000:871.614   CPU_ReadMem(4 bytes @ 0xE0001000)
T1614 000:875.137 - 3.571ms
T1614 000:875.170 JLINK_IsHalted()
T1614 000:878.292   CPU_ReadMem(2 bytes @ 0x20000000)
T1614 000:878.760 - 3.603ms returns TRUE
T1614 000:878.784 JLINK_ReadReg(R15 (PC))
T1614 000:878.796 - 0.015ms returns 0x20000000
T1614 000:878.806 JLINK_ClrBPEx(BPHandle = 0x0000000E)
T1614 000:878.814 - 0.011ms returns 0x00
T1614 000:878.824 JLINK_ReadReg(R0)
T1614 000:878.832 - 0.011ms returns 0x00000001
T1614 000:878.842 JLINK_HasError()
T1614 000:878.852 JLINK_WriteReg(R0, 0x00000C00)
T1614 000:878.861 - 0.012ms returns 0
T1614 000:878.870 JLINK_WriteReg(R1, 0x00000200)
T1614 000:878.878 - 0.011ms returns 0
T1614 000:878.887 JLINK_WriteReg(R2, 0x000000FF)
T1614 000:878.895 - 0.010ms returns 0
T1614 000:878.904 JLINK_WriteReg(R3, 0x00000000)
T1614 000:878.911 - 0.011ms returns 0
T1614 000:878.920 JLINK_WriteReg(R4, 0x00000000)
T1614 000:878.928 - 0.011ms returns 0
T1614 000:878.938 JLINK_WriteReg(R5, 0x00000000)
T1614 000:878.945 - 0.011ms returns 0
